Time [s],Value,Parity Error,Framing Error
1.445652875,0x000,,
1.446796850,0x100,,
1.681148900,0x100,,
1.816673700,0x100,,
2.054854675,0x100,,
2.103774100,0x000,,
2.104918150,0x100,,
2.159786100,0x001,,
2.160930125,0x003,,
2.162074300,0x011,,
2.163218450,0x056,,
2.164362625,0x001,,
2.165506775,0x002,,
2.166650950,0x028,,
2.167795100,0x009,,
2.168939275,0x19F,,
2.223547175,0x100,,
2.262819275,0x100,,
2.494128775,0x003,,
2.495272775,0x000,,
2.496416950,0x064,,
2.497561100,0x000,,
2.498705275,0x000,,
2.499849450,0x000,,
2.500993600,0x000,,
2.502137775,0x000,,
2.503281925,0x000,,
2.504426100,0x000,,
2.505570250,0x167,,
2.743192275,0x100,,
2.959315575,0x100,,
3.198224650,0x100,,
3.428357450,0x100,,
3.661422175,0x100,,
3.884319450,0x100,,
4.104414800,0x100,,
4.333585475,0x100,,
4.572501025,0x100,,
4.788533325,0x100,,
5.019556750,0x100,,
5.236687700,0x100,,
5.456679075,0x100,,
5.689860800,0x100,,
5.909644125,0x100,,
6.133822100,0x100,,
6.363831375,0x100,,
6.605314800,0x100,,
6.849099550,0x100,,
7.081234650,0x100,,
7.299002675,0x100,,
7.538028750,0x100,,
7.784088825,0x100,,
8.005191850,0x100,,
8.234160975,0x100,,
8.487307075,0x100,,
8.702188700,0x100,,
8.942274425,0x100,,
9.171256575,0x100,,
9.402689575,0x100,,
9.636625425,0x100,,
9.857409900,0x100,,
10.073461675,0x100,,
10.307787600,0x100,,
10.530216800,0x100,,
10.760928175,0x100,,
11.002684625,0x100,,
11.228734850,0x100,,
11.470998400,0x100,,
11.697185125,0x100,,
11.917826575,0x100,,
12.154993375,0x100,,
12.383253925,0x100,,
12.602036125,0x100,,
12.840230075,0x100,,
13.070076850,0x100,,
13.289457125,0x100,,
13.530082425,0x100,,
13.758141425,0x100,,
14.014876050,0x100,,
14.239606575,0x100,,
14.462295850,0x100,,
14.714785350,0x100,,
14.942447800,0x100,,
15.162712225,0x100,,
15.402615925,0x100,,
15.627892575,0x100,,
15.851082400,0x100,,
16.084712725,0x100,,
16.314917075,0x100,,
16.533803300,0x100,,
16.772946425,0x100,,
17.002117100,0x100,,
17.242605925,0x100,,
17.470847000,0x100,,
17.721795800,0x100,,
17.952747775,0x100,,
18.175060000,0x100,,
18.390338225,0x100,,
18.630046950,0x100,,
18.865120500,0x100,,
19.113228425,0x100,,
19.343348275,0x100,,
19.559530125,0x100,,
19.780288650,0x100,,
20.017208475,0x100,,
20.247939425,0x100,,
20.485327325,0x100,,
20.715317150,0x100,,
20.933533825,0x100,,
21.173528600,0x006,,
21.174672600,0x106,,
21.403388425,0x100,,
21.621397075,0x100,,
21.858375425,0x100,,
22.087435650,0x100,,
22.305385775,0x100,,
22.541740050,0x100,,
22.758578550,0x100,,
22.982054475,0x100,,
23.211602275,0x100,,
23.430839625,0x100,,
23.597406425,0x100,,
23.825979100,0x100,,
24.052803000,0x100,,
24.271871325,0x100,,
24.510897475,0x100,,
24.741895000,0x100,,
24.957998900,0x100,,
25.195965400,0x100,,
25.417062000,0x100,,
25.648352075,0x100,,
25.879908675,0x100,,
26.104398750,0x100,,
26.331261675,0x100,,
26.551383125,0x100,,
26.767610525,0x100,,
27.006487175,0x100,,
27.235618925,0x100,,
27.456891050,0x100,,
27.696372275,0x100,,
27.922812625,0x100,,
28.140340225,0x100,,
28.379821450,0x100,,
28.608849200,0x100,,
28.827826500,0x100,,
29.067028200,0x100,,
29.297336625,0x100,,
29.534106975,0x100,,
29.765572550,0x100,,
29.984010275,0x100,,
30.223179475,0x100,,
30.450913525,0x100,,
30.669266750,0x100,,
30.906940725,0x100,,
31.137346700,0x100,,
31.355251325,0x100,,
31.593399875,0x006,,
31.594543875,0x106,,
31.824247900,0x100,,
32.045227500,0x100,,
32.281159250,0x100,,
32.513177425,0x100,,
32.751319500,0x100,,
32.977259325,0x100,,
33.197322300,0x100,,
33.434411225,0x100,,
33.665486800,0x100,,
33.882448825,0x100,,
33.939949525,0x100,,
34.165739875,0x100,,
34.383553525,0x100,,
34.599566450,0x100,,
34.838566625,0x100,,
35.069590200,0x100,,
35.287676900,0x100,,
35.524759325,0x100,,
35.743990175,0x100,,
35.972881425,0x100,,
36.212180675,0x100,,
36.430130850,0x100,,
36.660276775,0x100,,
36.901116725,0x100,,
37.127375100,0x100,,
37.368137050,0x100,,
37.598295975,0x100,,
37.814399900,0x100,,
38.048530900,0x100,,
38.269640525,0x100,,
38.484463775,0x100,,
38.721572200,0x100,,
38.940556025,0x100,,
39.158759750,0x100,,
39.395595150,0x100,,
39.626592700,0x100,,
39.865924450,0x100,,
40.091695250,0x100,,
40.313747525,0x100,,
40.548801675,0x100,,
40.779844725,0x100,,
41.000018250,0x100,,
41.235657475,0x100,,
41.466063475,0x100,,
41.686646550,0x100,,
41.924970650,0x100,,
42.150904000,0x100,,
42.369907350,0x100,,
42.604922500,0x100,,
42.828118975,0x100,,
43.040289850,0x100,,
43.278028900,0x100,,
43.494015825,0x100,,
43.727347225,0x100,,
43.963396050,0x100,,
44.181612775,0x100,,
44.417570575,0x100,,
44.647508500,0x100,,
44.868494650,0x100,,
45.107546900,0x100,,
45.333473750,0x100,,
45.554589925,0x100,,
45.789748125,0x006,,
45.790892125,0x106,,
46.020557175,0x100,,
46.242518475,0x100,,
46.476461000,0x100,,
46.562429300,0x100,,
46.802307200,0x100,,
47.039675725,0x100,,
47.270718825,0x100,,
47.489670200,0x100,,
47.726713675,0x100,,
47.957841300,0x100,,
48.173347200,0x100,,
48.411879375,0x100,,
48.641492275,0x100,,
48.861028750,0x100,,
49.101420200,0x100,,
49.328296200,0x100,,
49.566353825,0x100,,
49.800075325,0x100,,
50.017258450,0x100,,
50.253398300,0x100,,
50.483492275,0x100,,
50.703464300,0x100,,
50.934695950,0x100,,
51.159426650,0x100,,
51.374692000,0x100,,
51.627363725,0x100,,
51.855760975,0x100,,
52.074959375,0x100,,
52.316852550,0x100,,
52.542870450,0x100,,
52.780726550,0x100,,
53.009864900,0x100,,
53.230922600,0x006,,
53.232066600,0x106,,
53.463655950,0x100,,
53.697767525,0x100,,
53.915756775,0x100,,
54.154835075,0x100,,
54.382894275,0x100,,
54.534626025,0x100,,
54.778911575,0x100,,
55.007094275,0x100,,
55.226962325,0x100,,
55.467938875,0x100,,
55.693085675,0x100,,
55.912095575,0x100,,
56.151362400,0x100,,
56.380474750,0x100,,
56.600713325,0x100,,
56.835514000,0x100,,
57.056825250,0x100,,
57.272571675,0x100,,
57.506553225,0x100,,
57.724997550,0x100,,
57.960669350,0x100,,
58.190691825,0x100,,
58.408817600,0x100,,
58.648858025,0x100,,
58.891726350,0x100,,
59.113674675,0x100,,
59.345179375,0x100,,
59.563968250,0x100,,
59.782308575,0x100,,
60.020918800,0x100,,
60.249186025,0x100,,
60.468267450,0x100,,
60.706084550,0x100,,
60.936464600,0x100,,
61.157366275,0x100,,
61.392277475,0x100,,
61.622163450,0x100,,
61.861293750,0x100,,
62.093227525,0x100,,
62.310488675,0x100,,
62.547512700,0x100,,
62.779491975,0x100,,
62.998547400,0x100,,
63.236520525,0x100,,
63.464592750,0x100,,
63.684837850,0x100,,
63.919716550,0x100,,
64.151702350,0x100,,
64.371011325,0x100,,
64.606767650,0x100,,
64.837004675,0x100,,
65.078930400,0x100,,
65.303843175,0x100,,
65.523035150,0x100,,
65.760949775,0x100,,
65.992090450,0x100,,
66.231305300,0x100,,
66.463408100,0x100,,
66.697194675,0x100,,
66.917316250,0x100,,
67.146311650,0x100,,
67.363273775,0x100,,
67.582504750,0x100,,
67.820497425,0x100,,
68.053438875,0x100,,
68.290482400,0x100,,
68.521597100,0x100,,
68.736556950,0x100,,
68.977377525,0x100,,
69.205742325,0x100,,
69.424778275,0x100,,
69.662517425,0x100,,
69.895725400,0x100,,
70.109944175,0x100,,
70.350953300,0x100,,
70.577816375,0x100,,
70.799056150,0x100,,
71.030118850,0x100,,
71.254979650,0x100,,
71.470056550,0x100,,
71.700924200,0x100,,
71.923223650,0x100,,
72.138014500,0x100,,
72.377326875,0x100,,
72.608220550,0x100,,
72.845192600,0x100,,
73.076144775,0x100,,
73.295213250,0x100,,
73.531457200,0x100,,
73.761603275,0x100,,
73.981354350,0x100,,
74.218527950,0x100,,
74.469281975,0x100,,
74.681537475,0x100,,
74.917384875,0x100,,
75.134672100,0x100,,
75.352511925,0x100,,
75.585635425,0x100,,
75.811568900,0x100,,
76.023720400,0x100,,
76.256661875,0x100,,
76.478798825,0x100,,
76.709822525,0x100,,
76.945916975,0x100,,
77.163873800,0x100,,
77.400078775,0x100,,
77.632643200,0x100,,
77.848175200,0x100,,
78.089086825,0x100,,
78.317945750,0x100,,
78.534199325,0x100,,
78.774142350,0x100,,
79.003326300,0x100,,
79.221322150,0x100,,
79.459379875,0x100,,
79.690364600,0x100,,
79.931386775,0x100,,
80.158620450,0x100,,
80.379405200,0x100,,
80.617527950,0x100,,
80.847641550,0x100,,
81.064558250,0x100,,
81.296888675,0x100,,
81.519792750,0x100,,
81.736943475,0x100,,
81.966654025,0x100,,
82.185683550,0x100,,
82.405655675,0x100,,
82.638987250,0x100,,
82.862710450,0x100,,
83.079841675,0x100,,
83.313153750,0x100,,
83.549976325,0x100,,
83.767842175,0x100,,
83.995127900,0x100,,
84.216029675,0x100,,
84.432114275,0x100,,
84.672265325,0x100,,
84.903360600,0x100,,
85.140105175,0x100,,
85.371167925,0x100,,
85.588299175,0x100,,
85.820369575,0x100,,
86.039568125,0x100,,
86.258402625,0x100,,
86.494269575,0x100,,
86.725429850,0x100,,
86.951454400,0x100,,
87.180891925,0x100,,
87.400142475,0x100,,
87.616526125,0x100,,
87.849012600,0x100,,
88.073814975,0x100,,
88.303915600,0x100,,
88.535673975,0x100,,
88.753897375,0x100,,
88.988691675,0x100,,
89.227841625,0x100,,
89.457071125,0x100,,
89.695024900,0x100,,
89.924930500,0x100,,
90.143394475,0x100,,
90.381335225,0x100,,
90.611130325,0x100,,
90.832506700,0x100,,
91.069277325,0x100,,
91.302023825,0x100,,
91.516522225,0x100,,
91.753565875,0x100,,
91.985545275,0x100,,
92.221548775,0x100,,
92.453255150,0x100,,
92.673662900,0x100,,
92.908327200,0x100,,
93.137667250,0x100,,
93.357860475,0x100,,
93.596951925,0x100,,
93.824692725,0x100,,
94.043761275,0x100,,
94.283665350,0x100,,
94.512914375,0x100,,
94.729980650,0x100,,
94.962792200,0x100,,
95.190032450,0x100,,
95.404927400,0x100,,
95.637264400,0x100,,
95.852952475,0x100,,
96.070967875,0x100,,
96.311223000,0x100,,
96.539132850,0x100,,
96.778237300,0x100,,
97.007265325,0x100,,
97.225241725,0x100,,
97.459639525,0x100,,
97.694394850,0x100,,
97.913450425,0x100,,
98.152327350,0x100,,
98.380367225,0x100,,
98.600638475,0x100,,
98.838722300,0x100,,
99.069869600,0x100,,
99.286792875,0x100,,
99.518843825,0x100,,
99.741806475,0x100,,
99.975775200,0x100,,
100.212649850,0x100,,
100.441924900,0x100,,
100.678116950,0x100,,
100.911962175,0x100,,
101.126993675,0x100,,
101.367099300,0x100,,
101.595132675,0x100,,
101.812016950,0x100,,
102.049067125,0x100,,
102.270463050,0x100,,
102.487262825,0x100,,
102.720275925,0x100,,
102.938278350,0x100,,
103.154226500,0x100,,
103.394306125,0x100,,
103.623704700,0x100,,
103.860527350,0x100,,
104.090511025,0x100,,
104.310626250,0x100,,
104.548372050,0x100,,
104.779629900,0x100,,
104.999777650,0x100,,
105.236496300,0x100,,
105.464016125,0x100,,
105.684820475,0x100,,
105.919894375,0x100,,
106.150970200,0x100,,
106.369791775,0x100,,
106.606627450,0x100,,
106.835974025,0x100,,
107.055822750,0x100,,
107.293289000,0x100,,
107.523227175,0x100,,
107.764060925,0x100,,
107.993394500,0x100,,
108.210200775,0x100,,
108.451307575,0x100,,
108.678450350,0x100,,
108.899235200,0x100,,
109.136181375,0x100,,
109.368284375,0x100,,
109.583562950,0x100,,
109.821315250,0x100,,
110.050349800,0x100,,
110.268248250,0x100,,
110.507528275,0x100,,
110.739832800,0x100,,
110.978644750,0x100,,
111.208875475,0x100,,
111.425538750,0x100,,
111.660651675,0x100,,
111.893801325,0x100,,
112.111862300,0x100,,
112.347885375,0x100,,
112.581015525,0x100,,
112.796723150,0x100,,
113.036113700,0x100,,
113.268125700,0x100,,
113.484918975,0x100,,
113.717191025,0x100,,
113.939978175,0x100,,
114.159319825,0x100,,
114.388165875,0x100,,
114.607286500,0x100,,
114.825145950,0x100,,
115.061234050,0x100,,
115.285288875,0x100,,
115.512379675,0x100,,
115.745633350,0x100,,
115.968388000,0x100,,
116.198904775,0x100,,
116.435532450,0x100,,
116.656258825,0x100,,
116.884422275,0x100,,
117.102444250,0x100,,
117.324607325,0x100,,
117.554799075,0x100,,
117.772606525,0x100,,
117.993872475,0x100,,
118.228991925,0x100,,
118.464767975,0x100,,
118.682959000,0x100,,
118.911961050,0x100,,
119.132856450,0x100,,
119.352549175,0x100,,
119.588201725,0x100,,
119.821130350,0x100,,
120.056119800,0x100,,
120.288235825,0x006,,
120.289379825,0x106,,
120.504119000,0x100,,
120.739934050,0x100,,
120.973077225,0x100,,
121.045952725,0x100,,
121.283282550,0x100,,
121.523069675,0x100,,
121.753222425,0x100,,
121.991104775,0x100,,
122.219235750,0x100,,
122.439253525,0x100,,
122.677369925,0x100,,
122.907425175,0x100,,
123.124446025,0x100,,
123.358518825,0x100,,
123.582658200,0x100,,
123.800751675,0x100,,
124.031821100,0x100,,
124.247840800,0x100,,
124.466935425,0x100,,
124.706826575,0x100,,
124.939027125,0x100,,
125.156132475,0x100,,
125.386863800,0x100,,
125.610236050,0x100,,
125.839290125,0x100,,
126.073102900,0x100,,
126.294433850,0x100,,
126.526439350,0x100,,
126.764263200,0x100,,
126.982265675,0x100,,
127.213133525,0x100,,
127.430277875,0x100,,
127.650445175,0x100,,
127.887365375,0x100,,
128.118272225,0x100,,
128.339635700,0x100,,
128.574423600,0x100,,
128.807605775,0x100,,
129.024646125,0x100,,
129.261553350,0x100,,
129.491511050,0x100,,
129.709780075,0x100,,
129.942884250,0x100,,
130.167933750,0x100,,
130.396103700,0x100,,
130.634779175,0x100,,
130.851917025,0x100,,
131.084098075,0x100,,
131.316240100,0x100,,
131.535133225,0x100,,
131.770129150,0x100,,
131.988313675,0x100,,
132.206030125,0x100,,
132.442859325,0x100,,
132.675111900,0x100,,
132.892347275,0x100,,
133.126303075,0x100,,
133.348303650,0x100,,
133.567346300,0x100,,
133.799332300,0x100,,
134.016249150,0x100,,
134.254482550,0x100,,
134.484498800,0x100,,
134.704035500,0x100,,
134.943601625,0x100,,
135.170666425,0x100,,
135.387973325,0x100,,
135.627708450,0x100,,
135.859635975,0x006,,
135.860779975,0x106,,
136.075551675,0x100,,
136.312647425,0x100,,
136.541669025,0x100,,
136.763006500,0x100,,
136.994648000,0x100,,
137.216837100,0x100,,
137.431862175,0x100,,
137.665388925,0x100,,
137.884899650,0x100,,
138.118536925,0x100,,
138.352590250,0x100,,
138.569871150,0x100,,
138.809983350,0x100,,
139.039271500,0x100,,
139.258041100,0x100,,
139.495136875,0x100,,
139.726407800,0x100,,
139.943337650,0x100,,
140.181207025,0x100,,
140.413297075,0x100,,
140.630324425,0x100,,
140.870339100,0x100,,
