Time [s],Value,Parity Error,Framing Error
1.440865075,0x112,,
1.442016850,0x012,,
1.447938825,0x000,,
1.676363525,0x112,,
1.677519675,0x012,,
1.811910725,0x110,,
1.813062225,0x010,,
2.044248950,0x111,,
2.045419850,0x000,,
2.046577250,0x003,,
2.047734125,0x010,,
2.048891025,0x002,,
2.050047800,0x001,,
2.051216575,0x027,,
2.099012700,0x112,,
2.100164450,0x012,,
2.106060025,0x000,,
2.155035800,0x112,,
2.156192575,0x012,,
2.170103325,0x000,,
2.212958400,0x111,,
2.214122525,0x001,,
2.215291925,0x042,,
2.216448950,0x040,,
2.217606350,0x000,,
2.218763850,0x000,,
2.219920625,0x094,,
2.256858225,0x114,,
2.258009725,0x001,,
2.259167125,0x015,,
2.489363525,0x112,,
2.490514775,0x012,,
2.506729825,0x000,,
2.738401450,0x112,,
2.739557950,0x012,,
2.954546950,0x112,,
2.955698450,0x012,,
3.193445750,0x112,,
3.194597250,0x012,,
3.423573075,0x112,,
3.424724600,0x012,,
3.656644375,0x112,,
3.657796125,0x012,,
3.879554300,0x112,,
3.880706200,0x012,,
4.099639725,0x112,,
4.100791625,0x012,,
4.328805000,0x112,,
4.329956900,0x012,,
4.567743325,0x112,,
4.568894600,0x012,,
4.783760650,0x112,,
4.784912175,0x012,,
5.014795150,0x112,,
5.015946800,0x012,,
5.231910875,0x112,,
5.233074900,0x012,,
5.451886225,0x112,,
5.453037500,0x012,,
5.685082225,0x112,,
5.686234100,0x012,,
5.904876125,0x112,,
5.906027900,0x012,,
6.129052775,0x112,,
6.130212300,0x012,,
6.359042800,0x112,,
6.360194575,0x012,,
6.594715675,0x113,,
6.595867450,0x000,,
6.597024450,0x027,,
6.598181350,0x010,,
6.599338750,0x0FF,,
6.600498775,0x0FF,,
6.601652775,0x048,,
6.844066950,0x112,,
6.845218725,0x012,,
7.076150875,0x112,,
7.077309400,0x012,,
7.294137275,0x112,,
7.295289175,0x012,,
7.533244700,0x112,,
7.534403975,0x012,,
7.779277775,0x112,,
7.780455050,0x012,,
8.000416700,0x112,,
8.001568575,0x012,,
8.229393425,0x112,,
8.230545175,0x012,,
8.482495200,0x112,,
8.483646950,0x012,,
8.697412550,0x112,,
8.698564075,0x012,,
8.937501050,0x112,,
8.938652950,0x012,,
9.166476025,0x112,,
9.167627675,0x012,,
9.397910875,0x112,,
9.399062125,0x012,,
9.631744775,0x112,,
9.632896550,0x012,,
9.852585075,0x112,,
9.853736475,0x012,,
10.068594075,0x112,,
10.069745950,0x012,,
10.302785275,0x112,,
10.303936650,0x012,,
10.524926925,0x112,,
10.526087450,0x012,,
10.755840200,0x112,,
10.756992850,0x012,,
10.997775700,0x112,,
10.998927225,0x012,,
11.223774975,0x112,,
11.224926250,0x012,,
11.465798900,0x112,,
11.466957525,0x012,,
11.692007075,0x112,,
11.693158450,0x012,,
11.912768900,0x112,,
11.913920400,0x012,,
12.150088700,0x112,,
12.151240450,0x012,,
12.378103250,0x112,,
12.379254775,0x012,,
12.597128800,0x112,,
12.598280075,0x012,,
12.835052725,0x112,,
12.836204375,0x012,,
13.065153650,0x112,,
13.066299675,0x012,,
13.284271950,0x112,,
13.285423225,0x012,,
13.525146750,0x112,,
13.526298025,0x012,,
13.753231875,0x112,,
13.754383125,0x012,,
14.009962825,0x112,,
14.011114350,0x012,,
14.234477625,0x112,,
14.235629400,0x012,,
14.457424675,0x112,,
14.458576200,0x012,,
14.709708000,0x112,,
14.710858400,0x012,,
14.937487250,0x112,,
14.938638900,0x012,,
15.157682200,0x112,,
15.158833450,0x012,,
15.397468875,0x112,,
15.398620400,0x012,,
15.622776275,0x112,,
15.623927550,0x012,,
15.845671950,0x112,,
15.846820975,0x012,,
16.079642150,0x112,,
16.080805925,0x012,,
16.309821125,0x112,,
16.310970000,0x012,,
16.528898700,0x112,,
16.530050200,0x012,,
16.767785075,0x112,,
16.768941350,0x012,,
16.997041525,0x112,,
16.998193150,0x012,,
17.237839050,0x112,,
17.238997950,0x012,,
17.465931300,0x112,,
17.467083075,0x012,,
17.717035975,0x112,,
17.718187750,0x012,,
17.947961625,0x112,,
17.949113150,0x012,,
18.170188000,0x112,,
18.171339375,0x012,,
18.385294025,0x112,,
18.386441275,0x012,,
18.624849150,0x112,,
18.626000650,0x012,,
18.860107100,0x112,,
18.861258750,0x012,,
19.108138850,0x112,,
19.109297625,0x012,,
19.338180425,0x112,,
19.339332200,0x012,,
19.554443400,0x112,,
19.555605425,0x012,,
19.775329825,0x112,,
19.776493850,0x012,,
20.012290400,0x112,,
20.013442050,0x012,,
20.242808800,0x112,,
20.243960300,0x012,,
20.480322025,0x112,,
20.481476400,0x012,,
20.710449775,0x112,,
20.711600650,0x012,,
20.928519525,0x112,,
20.929671025,0x012,,
21.168408150,0x112,,
21.169565525,0x012,,
21.175795300,0x000,,
21.398580800,0x112,,
21.399744700,0x012,,
21.616605750,0x112,,
21.617770150,0x012,,
21.853588050,0x112,,
21.854739825,0x012,,
22.082640775,0x112,,
22.083799425,0x012,,
22.300620250,0x112,,
22.301772000,0x012,,
22.536847925,0x112,,
22.537999700,0x012,,
22.753785900,0x112,,
22.754937675,0x012,,
22.977266850,0x112,,
22.978418725,0x012,,
23.206815025,0x112,,
23.207958675,0x012,,
23.426069675,0x112,,
23.427221450,0x012,,
23.586810000,0x113,,
23.587961875,0x000,,
23.589118900,0x027,,
23.590276050,0x010,,
23.591445700,0x0FF,,
23.592608600,0x0FF,,
23.593764250,0x048,,
23.820994150,0x112,,
23.822159175,0x012,,
24.048000625,0x112,,
24.049151875,0x012,,
24.267092975,0x112,,
24.268244225,0x012,,
24.506101575,0x112,,
24.507265100,0x012,,
24.737113425,0x112,,
24.738265325,0x012,,
24.953220025,0x112,,
24.954371300,0x012,,
25.191188675,0x112,,
25.192340575,0x012,,
25.412168150,0x112,,
25.413319900,0x012,,
25.643269600,0x112,,
25.644421350,0x012,,
25.874820525,0x112,,
25.875979175,0x012,,
26.099224950,0x112,,
26.100388475,0x012,,
26.326333000,0x112,,
26.327495250,0x012,,
26.546363150,0x112,,
26.547514925,0x012,,
26.762344750,0x112,,
26.763501625,0x012,,
27.001427575,0x112,,
27.002591600,0x012,,
27.230694950,0x112,,
27.231835450,0x012,,
27.451634525,0x112,,
27.452798550,0x012,,
27.691476600,0x112,,
27.692628500,0x012,,
27.917661475,0x112,,
27.918822000,0x012,,
28.135570900,0x112,,
28.136739675,0x012,,
28.374737000,0x112,,
28.375888275,0x012,,
28.603654500,0x112,,
28.604813400,0x012,,
28.822824475,0x112,,
28.823976375,0x012,,
29.061795500,0x112,,
29.062947275,0x012,,
29.291894525,0x112,,
29.293048675,0x012,,
29.529019525,0x112,,
29.530163400,0x012,,
29.760032700,0x112,,
29.761183975,0x012,,
29.979085000,0x112,,
29.980236750,0x012,,
30.218036750,0x112,,
30.219188250,0x012,,
30.446065700,0x112,,
30.447217475,0x012,,
30.664100475,0x112,,
30.665264000,0x012,,
30.902082325,0x112,,
30.903234075,0x012,,
31.132183575,0x112,,
31.133334825,0x012,,
31.350214900,0x112,,
31.351378925,0x012,,
31.588177875,0x112,,
31.589329125,0x012,,
31.595662350,0x000,,
31.819456500,0x112,,
31.820613025,0x012,,
32.040441775,0x112,,
32.041593675,0x012,,
32.276369425,0x112,,
32.277527950,0x012,,
32.508414800,0x112,,
32.509566325,0x012,,
32.746527425,0x112,,
32.747678950,0x012,,
32.972466550,0x112,,
32.973624825,0x012,,
33.192519625,0x112,,
33.193679150,0x012,,
33.429623550,0x112,,
33.430773550,0x012,,
33.660687725,0x112,,
33.661843375,0x012,,
33.877673150,0x112,,
33.878824675,0x012,,
33.929383350,0x113,,
33.930535350,0x000,,
33.931692375,0x027,,
33.932849525,0x010,,
33.934006925,0x0FF,,
33.935168925,0x0FF,,
33.936320950,0x048,,
34.160754700,0x112,,
34.161905950,0x012,,
34.378785500,0x112,,
34.379937400,0x012,,
34.594755100,0x112,,
34.595906375,0x012,,
34.833798300,0x112,,
34.834946675,0x012,,
35.064816325,0x112,,
35.065967825,0x012,,
35.282894225,0x112,,
35.284046125,0x012,,
35.519893725,0x112,,
35.521042975,0x012,,
35.738940825,0x112,,
35.740092325,0x012,,
35.967987475,0x112,,
35.969146350,0x012,,
36.207115400,0x112,,
36.208266925,0x012,,
36.425008900,0x112,,
36.426160400,0x012,,
36.655093050,0x112,,
36.656244675,0x012,,
36.896136925,0x112,,
36.897288825,0x012,,
37.122317425,0x112,,
37.123468700,0x012,,
37.363101700,0x112,,
37.364253450,0x012,,
37.593386050,0x112,,
37.594537825,0x012,,
37.809244125,0x112,,
37.810403025,0x012,,
38.043330225,0x112,,
38.044481750,0x012,,
38.264431950,0x112,,
38.265583700,0x012,,
38.479478050,0x112,,
38.480636700,0x012,,
38.716630650,0x112,,
38.717784925,0x012,,
38.935591125,0x112,,
38.936742625,0x012,,
39.153649550,0x112,,
39.154800825,0x012,,
39.390506275,0x112,,
39.391659300,0x012,,
39.621640400,0x112,,
39.622792050,0x012,,
39.860710225,0x112,,
39.861874250,0x012,,
40.086635750,0x112,,
40.087787525,0x012,,
40.308789950,0x112,,
40.309941225,0x012,,
40.543668150,0x112,,
40.544820025,0x012,,
40.774826300,0x112,,
40.775978075,0x012,,
40.994919325,0x112,,
40.996071075,0x012,,
41.230780000,0x112,,
41.231931625,0x012,,
41.460914900,0x112,,
41.462066675,0x012,,
41.681859050,0x112,,
41.683010325,0x012,,
41.919939950,0x112,,
41.921091200,0x012,,
42.145989275,0x112,,
42.147141675,0x012,,
42.365128075,0x112,,
42.366279350,0x012,,
42.600150450,0x112,,
42.601297450,0x012,,
42.823138500,0x112,,
42.824290250,0x012,,
43.035231625,0x112,,
43.036380775,0x012,,
43.273142725,0x112,,
43.274293975,0x012,,
43.489216650,0x112,,
43.490368425,0x012,,
43.722523125,0x112,,
43.723674900,0x012,,
43.958346625,0x112,,
43.959498525,0x012,,
44.176372600,0x112,,
44.177524125,0x012,,
44.412403500,0x112,,
44.413559525,0x012,,
44.642453800,0x112,,
44.643605700,0x012,,
44.863586050,0x112,,
44.864750075,0x012,,
45.102546600,0x112,,
45.103698125,0x012,,
45.328503675,0x112,,
45.329655075,0x012,,
45.549578625,0x112,,
45.550730150,0x012,,
45.784848775,0x112,,
45.786000550,0x012,,
45.792014075,0x000,,
46.015773750,0x112,,
46.016930525,0x012,,
46.237729500,0x112,,
46.238881275,0x012,,
46.471685950,0x112,,
46.472844725,0x012,,
46.551849050,0x113,,
46.553000700,0x000,,
46.554157725,0x027,,
46.555326875,0x010,,
46.556484375,0x0FF,,
46.557641775,0x0FF,,
46.558799175,0x048,,
46.797466275,0x112,,
46.798630300,0x012,,
47.034863925,0x112,,
47.036015450,0x012,,
47.265933700,0x112,,
47.267084975,0x012,,
47.484903275,0x112,,
47.486055025,0x012,,
47.721948150,0x112,,
47.723099675,0x012,,
47.952901900,0x112,,
47.954053425,0x012,,
48.168020250,0x112,,
48.169171525,0x012,,
48.406991000,0x112,,
48.408142375,0x012,,
48.636356925,0x112,,
48.637508700,0x012,,
48.856133150,0x112,,
48.857285025,0x012,,
49.096150375,0x112,,
49.097311025,0x012,,
49.323279325,0x112,,
49.324430575,0x012,,
49.561300275,0x112,,
49.562451300,0x012,,
49.795298175,0x112,,
49.796449925,0x012,,
50.012471875,0x112,,
50.013631025,0x012,,
50.248373600,0x112,,
50.249525125,0x012,,
50.478493325,0x112,,
50.479644850,0x012,,
50.698521375,0x112,,
50.699672900,0x012,,
50.929545650,0x112,,
50.930697550,0x012,,
51.154574725,0x112,,
51.155725975,0x012,,
51.369673475,0x112,,
51.370825000,0x012,,
51.622527750,0x112,,
51.623679525,0x012,,
51.850711100,0x112,,
51.851862875,0x012,,
52.069757425,0x112,,
52.070908950,0x012,,
52.311713175,0x112,,
52.312864675,0x012,,
52.537762950,0x112,,
52.538913725,0x012,,
52.775803300,0x112,,
52.776986325,0x012,,
53.004878150,0x112,,
53.006030050,0x012,,
53.226068700,0x112,,
53.227219975,0x012,,
53.233221125,0x000,,
53.458889300,0x112,,
53.460035700,0x012,,
53.692983175,0x112,,
53.694134575,0x012,,
53.910982250,0x112,,
53.912134000,0x012,,
54.150050625,0x112,,
54.151202375,0x012,,
54.378116000,0x112,,
54.379267650,0x012,,
54.524004775,0x113,,
54.525168675,0x000,,
54.526325450,0x027,,
54.527482100,0x010,,
54.528638875,0x0FF,,
54.529796000,0x0FF,,
54.530965025,0x048,,
54.774057750,0x112,,
54.775209525,0x012,,
55.002285975,0x112,,
55.003437750,0x012,,
55.222177675,0x112,,
55.223336175,0x012,,
55.463170275,0x112,,
55.464321525,0x012,,
55.688321200,0x112,,
55.689472600,0x012,,
55.907315850,0x112,,
55.908467100,0x012,,
56.146366075,0x112,,
56.147532475,0x012,,
56.375405925,0x112,,
56.376557325,0x012,,
56.595596525,0x112,,
56.596748025,0x012,,
56.830542450,0x112,,
56.831693325,0x012,,
57.051482250,0x112,,
57.052627000,0x012,,
57.267660450,0x112,,
57.268824225,0x012,,
57.501621925,0x112,,
57.502773675,0x012,,
57.719627775,0x112,,
57.720779425,0x012,,
57.955725400,0x112,,
57.956877025,0x012,,
58.185727325,0x112,,
58.186878850,0x012,,
58.403717200,0x112,,
58.404868975,0x012,,
58.643747575,0x112,,
58.644903725,0x012,,
58.886807225,0x112,,
58.887965750,0x012,,
59.108345700,0x112,,
59.109497475,0x012,,
59.340026225,0x112,,
59.341177475,0x012,,
59.559034450,0x112,,
59.560185975,0x012,,
59.777085875,0x112,,
59.778237125,0x012,,
60.016043175,0x112,,
60.017202075,0x012,,
60.244049450,0x112,,
60.245208100,0x012,,
60.463154100,0x112,,
60.464305375,0x012,,
60.701098700,0x112,,
60.702250450,0x012,,
60.931167325,0x112,,
60.932314200,0x012,,
61.152254500,0x112,,
61.153405775,0x012,,
61.387370025,0x112,,
61.388521800,0x012,,
61.617301575,0x112,,
61.618453075,0x012,,
61.856403500,0x112,,
61.857555000,0x012,,
62.088337775,0x112,,
62.089489300,0x012,,
62.305414725,0x112,,
62.306573500,0x012,,
62.542402725,0x112,,
62.543554600,0x012,,
62.774423825,0x112,,
62.775575725,0x012,,
62.993473050,0x112,,
62.994655575,0x012,,
63.231464000,0x112,,
63.232615250,0x012,,
63.459652375,0x112,,
63.460803775,0x012,,
63.679644550,0x112,,
63.680796300,0x012,,
63.914627550,0x112,,
63.915779300,0x012,,
64.146814025,0x112,,
64.147969025,0x012,,
64.365893525,0x112,,
64.367057300,0x012,,
64.601853825,0x112,,
64.603005100,0x012,,
64.831811900,0x112,,
64.832963675,0x012,,
65.073892750,0x112,,
65.075044525,0x012,,
65.298809050,0x112,,
65.299960550,0x012,,
65.517901700,0x112,,
65.519053475,0x012,,
65.755999875,0x112,,
65.757151650,0x012,,
65.987057850,0x112,,
65.988209350,0x012,,
66.226069425,0x112,,
66.227220675,0x012,,
66.458153125,0x112,,
66.459304625,0x012,,
66.692091050,0x112,,
66.693242300,0x012,,
66.912132150,0x112,,
66.913283425,0x012,,
67.141218875,0x112,,
67.142363125,0x012,,
67.358318650,0x112,,
67.359470150,0x012,,
67.577426175,0x112,,
67.578577700,0x012,,
67.815310875,0x112,,
67.816462650,0x012,,
68.048363150,0x112,,
68.049514775,0x012,,
68.285423350,0x112,,
68.286567225,0x012,,
68.516519425,0x112,,
68.517670925,0x012,,
68.731520700,0x112,,
68.732671975,0x012,,
68.972467375,0x112,,
68.973616900,0x012,,
69.200563600,0x112,,
69.201722725,0x012,,
69.419605850,0x112,,
69.420769875,0x012,,
69.657628350,0x112,,
69.658779600,0x012,,
69.890676425,0x112,,
69.891827700,0x012,,
70.104831225,0x112,,
70.105982725,0x012,,
70.345811800,0x112,,
70.346963450,0x012,,
70.572791550,0x112,,
70.573942825,0x012,,
70.793888625,0x112,,
70.795039900,0x012,,
71.025002900,0x112,,
71.026154650,0x012,,
71.249933100,0x112,,
71.251084625,0x012,,
71.465058000,0x112,,
71.466216650,0x012,,
71.695953400,0x112,,
71.697104925,0x012,,
71.917976150,0x112,,
71.919127925,0x012,,
72.133017150,0x112,,
72.134169025,0x012,,
72.372033975,0x112,,
72.373185750,0x012,,
72.603176650,0x112,,
72.604327900,0x012,,
72.840201825,0x112,,
72.841353600,0x012,,
73.071175125,0x112,,
73.072326650,0x012,,
73.290207400,0x112,,
73.291366550,0x012,,
73.526227125,0x112,,
73.527378900,0x012,,
73.756425850,0x112,,
73.757584125,0x012,,
73.976408450,0x112,,
73.977560225,0x012,,
74.213414875,0x112,,
74.214569650,0x012,,
74.464417400,0x112,,
74.465569175,0x012,,
74.676492375,0x112,,
74.677643900,0x012,,
74.912516850,0x112,,
74.913687750,0x012,,
75.129516050,0x112,,
75.130667825,0x012,,
75.347573125,0x112,,
75.348714150,0x012,,
75.580606250,0x112,,
75.581763525,0x012,,
75.806611925,0x112,,
75.807763700,0x012,,
76.018685650,0x112,,
76.019837425,0x012,,
76.251758675,0x112,,
76.252910425,0x012,,
76.473764400,0x112,,
76.474915900,0x012,,
76.704874375,0x112,,
76.706026275,0x012,,
76.940938725,0x112,,
76.942090000,0x012,,
77.158929650,0x112,,
77.160081050,0x012,,
77.394976000,0x112,,
77.396127775,0x012,,
77.627560700,0x112,,
77.628724475,0x012,,
77.842992475,0x112,,
77.844144250,0x012,,
78.084050800,0x112,,
78.085202325,0x012,,
78.312993950,0x112,,
78.314145475,0x012,,
78.529158050,0x112,,
78.530309450,0x012,,
78.769145625,0x112,,
78.770297375,0x012,,
78.998373525,0x112,,
78.999521050,0x012,,
79.216354975,0x112,,
79.217506225,0x012,,
79.454278700,0x112,,
79.455430450,0x012,,
79.685328200,0x112,,
79.686479975,0x012,,
79.926277050,0x112,,
79.927427700,0x012,,
80.153400525,0x112,,
80.154552025,0x012,,
80.374507525,0x112,,
80.375659025,0x012,,
80.612378975,0x112,,
80.613530475,0x012,,
80.842501300,0x112,,
80.843652800,0x012,,
81.059536325,0x112,,
81.060698975,0x012,,
81.291706325,0x112,,
81.292857850,0x012,,
81.514783450,0x112,,
81.515927350,0x012,,
81.731865725,0x112,,
81.733008475,0x012,,
81.961663000,0x112,,
81.962814525,0x012,,
82.180766825,0x112,,
82.181918575,0x012,,
82.400743250,0x112,,
82.401907275,0x012,,
82.633926450,0x112,,
82.635077975,0x012,,
82.857830325,0x112,,
82.858982100,0x012,,
83.074918575,0x112,,
83.076070100,0x012,,
83.308018225,0x112,,
83.309169500,0x012,,
83.544921375,0x112,,
83.546072650,0x012,,
83.762926200,0x112,,
83.764079725,0x012,,
83.989991375,0x112,,
83.991143150,0x012,,
84.211131525,0x112,,
84.212281150,0x012,,
84.427048875,0x112,,
84.428196275,0x012,,
84.667158150,0x112,,
84.668317150,0x012,,
84.898319300,0x112,,
84.899478200,0x012,,
85.135203075,0x112,,
85.136361850,0x012,,
85.366254575,0x112,,
85.367406200,0x012,,
85.583395750,0x112,,
85.584559775,0x012,,
85.815440950,0x112,,
85.816599825,0x012,,
86.034395200,0x112,,
86.035546575,0x012,,
86.253486925,0x112,,
86.254643075,0x012,,
86.489428175,0x112,,
86.490581425,0x012,,
86.720589125,0x112,,
86.721737375,0x012,,
86.946607125,0x112,,
86.947759000,0x012,,
87.175628975,0x112,,
87.176780875,0x012,,
87.394615850,0x112,,
87.395804000,0x012,,
87.611621950,0x112,,
87.612773475,0x012,,
87.843860925,0x112,,
87.845019450,0x012,,
88.068838100,0x112,,
88.069989875,0x012,,
88.298810275,0x112,,
88.299962150,0x012,,
88.530797475,0x112,,
88.531949250,0x012,,
88.748840850,0x112,,
88.750011750,0x012,,
88.983799750,0x112,,
88.984951275,0x012,,
89.222921925,0x112,,
89.224073700,0x012,,
89.451994300,0x112,,
89.453145800,0x012,,
89.689944950,0x112,,
89.691096475,0x012,,
89.919987650,0x112,,
89.921150550,0x012,,
90.138155825,0x112,,
90.139307600,0x012,,
90.376223675,0x112,,
90.377375450,0x012,,
90.606181975,0x112,,
90.607333850,0x012,,
90.827179050,0x112,,
90.828330450,0x012,,
91.064226075,0x112,,
91.065377850,0x012,,
91.296532425,0x112,,
91.297683950,0x012,,
91.511303475,0x112,,
91.512467500,0x012,,
91.748265950,0x112,,
91.749417575,0x012,,
91.980540050,0x112,,
91.981692450,0x012,,
92.216448400,0x112,,
92.217600550,0x012,,
92.448388975,0x112,,
92.449540250,0x012,,
92.668568575,0x112,,
92.669719850,0x012,,
92.903455125,0x112,,
92.904606900,0x012,,
93.132606050,0x112,,
93.133757925,0x012,,
93.352635075,0x112,,
93.353786850,0x012,,
93.591573850,0x112,,
93.592733125,0x012,,
93.819860825,0x112,,
93.821015075,0x012,,
94.038692900,0x112,,
94.039852925,0x012,,
94.278762675,0x112,,
94.279914075,0x012,,
94.508005150,0x112,,
94.509157025,0x012,,
94.724976400,0x112,,
94.726159200,0x012,,
94.957860925,0x112,,
94.959012950,0x012,,
95.184848425,0x112,,
95.186000175,0x012,,
95.399933275,0x112,,
95.401085150,0x012,,
95.631973300,0x112,,
95.633124700,0x012,,
95.848022600,0x112,,
95.849174125,0x012,,
96.066040875,0x112,,
96.067188275,0x012,,
96.306170175,0x112,,
96.307321700,0x012,,
96.534105075,0x112,,
96.535256725,0x012,,
96.773186775,0x112,,
96.774338550,0x012,,
97.002239800,0x112,,
97.003391075,0x012,,
97.220233925,0x112,,
97.221385450,0x012,,
97.454354000,0x112,,
97.455505500,0x012,,
97.689254450,0x112,,
97.690405975,0x012,,
97.908360100,0x112,,
97.909510725,0x012,,
98.147415025,0x112,,
98.148566925,0x012,,
98.375461700,0x112,,
98.376617825,0x012,,
98.595475700,0x112,,
98.596626975,0x012,,
98.833531675,0x112,,
98.834682950,0x012,,
99.064673775,0x112,,
99.065829925,0x012,,
99.281592925,0x112,,
99.282744700,0x012,,
99.513807400,0x112,,
99.514959175,0x012,,
99.736721625,0x112,,
99.737873400,0x012,,
99.970763675,0x112,,
99.971915550,0x012,,
100.207765425,0x112,,
100.208917325,0x012,,
100.436839700,0x112,,
100.437991200,0x012,,
100.672908025,0x112,,
100.674068550,0x012,,
100.906926825,0x112,,
100.908078350,0x012,,
101.121939725,0x112,,
101.123093375,0x012,,
101.361940575,0x112,,
101.363099350,0x012,,
101.590051550,0x112,,
101.591209825,0x012,,
101.806924900,0x112,,
101.808076675,0x012,,
102.044186675,0x112,,
102.045338175,0x012,,
102.265248050,0x112,,
102.266399575,0x012,,
102.482207750,0x112,,
102.483359000,0x012,,
102.715215350,0x112,,
102.716367250,0x012,,
102.933331300,0x112,,
102.934494825,0x012,,
103.149255275,0x112,,
103.150407025,0x012,,
103.389222400,0x112,,
103.390374150,0x012,,
103.618307850,0x112,,
103.619459600,0x012,,
103.855380325,0x112,,
103.856524600,0x012,,
104.085522500,0x112,,
