Time [s],Value,Parity Error,Framing Error
5.953459500,0x108,,
5.954605400,0x008,,
6.358486200,0x110,,
6.359632100,0x010,,
6.863519500,0x130,,
6.864665400,0x030,,
8.468625300,0x108,,
8.469771200,0x008,,
9.373685000,0x130,,
9.374830900,0x030,,
9.878718300,0x110,,
9.879864200,0x010,,
10.983895300,0x108,,
10.985041200,0x008,,
11.888955000,0x130,,
11.890100900,0x030,,
13.394054200,0x110,,
13.395200100,0x010,,
13.499061100,0x108,,
13.500207000,0x008,,
14.404120700,0x130,,
14.405266600,0x030,,
16.009226400,0x108,,
16.010372300,0x008,,
16.914390200,0x130,,
16.915536100,0x030,,
16.939287700,0x110,,
16.940433600,0x010,,
18.524496200,0x108,,
18.525642100,0x008,,
19.429555800,0x130,,
19.430701700,0x030,,
20.534628500,0x110,,
20.535774400,0x010,,
21.039661700,0x108,,
21.040807600,0x008,,
21.944721200,0x130,,
21.945867100,0x030,,
23.549931000,0x108,,
23.551076900,0x008,,
24.054964200,0x110,,
24.056110100,0x010,,
24.459990800,0x130,,
24.461136700,0x030,,
26.065096400,0x108,,
26.066242300,0x008,,
26.970155900,0x130,,
26.971301800,0x030,,
27.575195700,0x110,,
27.576341600,0x010,,
28.580365900,0x108,,
28.581511900,0x008,,
29.485425500,0x130,,
29.486571400,0x030,,
31.090531000,0x108,,
31.091676900,0x008,,
31.115532600,0x110,,
31.116678600,0x010,,
32.000590800,0x130,,
32.001736800,0x030,,
33.605696400,0x108,,
33.606842300,0x008,,
34.510860100,0x130,,
34.512006000,0x030,,
34.715873600,0x110,,
34.717019500,0x010,,
36.120966000,0x108,,
36.122111900,0x008,,
37.026025500,0x130,,
37.027171400,0x030,,
38.231104700,0x110,,
38.232250600,0x010,,
38.636131300,0x108,,
38.637277300,0x008,,
39.541295000,0x130,,
39.542440900,0x030,,
41.146400500,0x108,,
41.147546400,0x008,,
41.751440300,0x110,,
41.752586200,0x010,,
42.056460400,0x130,,
42.057606300,0x030,,
43.661565900,0x108,,
43.662711800,0x008,,
44.566625400,0x130,,
44.567771300,0x030,,
45.271671700,0x110,,
45.272817600,0x010,,
46.176835400,0x108,,
46.177981300,0x008,,
47.081894800,0x130,,
47.083040700,0x030,,
48.687000300,0x108,,
48.688146200,0x008,,
48.792007200,0x110,,
48.793153100,0x010,,
49.096347600,0x1FD,,
49.597060100,0x130,,
49.598206000,0x030,,
51.202269800,0x108,,
51.203415700,0x008,,
52.107329300,0x130,,
52.108475200,0x030,,
52.312342700,0x110,,
52.313488600,0x010,,
53.717435100,0x108,,
53.718581000,0x008,,
54.622494500,0x130,,
54.623640400,0x030,,
55.827573700,0x110,,
55.828719600,0x010,,
56.232600300,0x108,,
56.233746200,0x008,,
57.137764000,0x130,,
57.138909900,0x030,,
58.742869400,0x108,,
58.744015300,0x008,,
59.347909200,0x110,,
59.349055100,0x010,,
59.452916100,0x112,,
59.454062000,0x012,,
59.460208200,0x000,,
59.557923000,0x111,,
59.559068900,0x000,,
59.560214800,0x003,,
59.561360700,0x000,,
59.562506600,0x000,,
59.563652500,0x000,,
59.564798500,0x014,,
59.667930200,0x130,,
59.669076100,0x030,,
59.692931900,0x112,,
59.694077800,0x012,,
59.777937500,0x112,,
59.779083400,0x012,,
59.882944400,0x112,,
59.884090300,0x012,,
59.987951300,0x112,,
59.989097200,0x012,,
60.092958200,0x112,,
60.094104100,0x012,,
60.197965100,0x112,,
60.199111000,0x012,,
60.302972000,0x112,,
60.304117900,0x012,,
60.407978900,0x112,,
60.409124800,0x012,,
60.512985800,0x112,,
60.514131700,0x012,,
60.617992700,0x112,,
60.619138600,0x012,,
60.722999600,0x112,,
60.724145500,0x012,,
60.828006500,0x112,,
60.829152400,0x012,,
60.933013400,0x112,,
60.934159300,0x012,,
61.038020300,0x112,,
61.039166200,0x012,,
61.143027200,0x112,,
61.144173100,0x012,,
61.248034000,0x108,,
61.249180000,0x008,,
61.273035700,0x112,,
61.274181600,0x012,,
61.358041300,0x112,,
61.359187200,0x012,,
61.463048200,0x112,,
61.464194100,0x012,,
61.568055100,0x112,,
61.569201000,0x012,,
61.673062000,0x112,,
61.674207900,0x012,,
61.778068900,0x112,,
61.779214800,0x012,,
61.883075800,0x112,,
61.884221700,0x012,,
61.988082700,0x112,,
61.989228600,0x012,,
62.093089600,0x112,,
62.094235500,0x012,,
62.100381700,0x000,,
62.198096500,0x130,,
62.199242400,0x030,,
62.223098100,0x111,,
62.224244000,0x001,,
62.225389900,0x0FF,,
62.226535800,0x0FF,,
62.227681700,0x000,,
62.228827600,0x000,,
62.229973600,0x010,,
62.244245300,0x000,,
62.303103400,0x111,,
62.304249300,0x001,,
62.305395200,0x0FF,,
62.306541100,0x0FF,,
62.307687000,0x000,,
62.308832900,0x000,,
62.309978800,0x010,,
62.413110600,0x117,,
62.414256500,0x000,,
62.415402400,0x04B,,
62.416548300,0x049,,
62.417694200,0x04D,,
62.418840100,0x030,,
62.419986000,0x030,,
62.421131900,0x030,,
62.422277900,0x030,,
62.423423800,0x030,,
62.424569700,0x030,,
62.425715600,0x030,,
62.426861500,0x030,,
62.428007400,0x030,,
62.429153300,0x030,,
62.430299200,0x030,,
62.431445100,0x030,,
62.432591000,0x030,,
62.433736900,0x030,,
62.434882800,0x030,,
62.436028800,0x030,,
62.437174700,0x030,,
62.438320600,0x030,,
62.439466500,0x030,,
62.440612400,0x030,,
62.441758300,0x030,,
62.442904200,0x030,,
62.444050100,0x030,,
62.445196000,0x030,,
62.446341900,0x000,,
62.447487800,0x000,,
62.448633800,0x078,,
62.513117200,0x112,,
62.514263100,0x012,,
62.558224300,0x000,,
62.618124100,0x112,,
62.619270000,0x012,,
62.723130900,0x114,,
62.724276900,0x001,,
62.725422800,0x015,,
62.828137800,0x112,,
62.829283800,0x012,,
63.033255500,0x112,,
63.034401400,0x012,,
63.238268900,0x112,,
63.239414900,0x012,,
63.443282400,0x112,,
63.444428300,0x012,,
63.648295900,0x112,,
63.649441800,0x012,,
63.753302800,0x108,,
63.754448700,0x008,,
63.858309700,0x112,,
63.859455600,0x012,,
64.063323100,0x112,,
64.064469000,0x012,,
64.268336600,0x112,,
64.269482500,0x012,,
64.473350100,0x112,,
64.474496000,0x012,,
64.678363500,0x112,,
64.679509400,0x012,,
64.783370400,0x130,,
64.784516300,0x030,,
64.888377300,0x112,,
64.889523200,0x012,,
65.093390800,0x112,,
65.094536700,0x012,,
65.298404200,0x112,,
65.299550100,0x012,,
65.503417700,0x112,,
65.504563600,0x012,,
65.708431200,0x112,,
65.709577100,0x012,,
65.913444600,0x112,,
65.914590500,0x012,,
66.118458100,0x112,,
66.119604000,0x012,,
66.323471500,0x108,,
66.324617400,0x008,,
66.348473200,0x112,,
66.349619100,0x012,,
66.533485300,0x112,,
66.534631200,0x012,,
66.738498800,0x112,,
66.739644700,0x012,,
66.943512200,0x112,,
66.944658200,0x012,,
67.148525700,0x112,,
67.149671600,0x012,,
67.353539200,0x130,,
67.354685100,0x030,,
67.378540800,0x112,,
67.379686700,0x012,,
67.563552900,0x112,,
67.564698900,0x012,,
67.768566400,0x112,,
67.769712300,0x012,,
67.973579900,0x112,,
67.974725800,0x012,,
68.178593300,0x112,,
68.179739200,0x012,,
68.383606800,0x112,,
68.384752700,0x012,,
68.588620200,0x112,,
68.589766100,0x012,,
68.793737900,0x112,,
68.794883800,0x012,,
68.898744800,0x108,,
68.899890700,0x008,,
69.003751600,0x112,,
69.004897600,0x012,,
69.208765100,0x112,,
69.209911000,0x012,,
69.413778600,0x112,,
69.414924500,0x012,,
69.618792000,0x112,,
69.619937900,0x012,,
69.823805500,0x112,,
69.824951400,0x012,,
69.928812400,0x130,,
69.929958300,0x030,,
70.033819300,0x112,,
70.034965200,0x012,,
70.238832700,0x112,,
70.239978600,0x012,,
70.443846200,0x112,,
70.444992100,0x012,,
70.648859600,0x112,,
70.650005500,0x012,,
70.853873100,0x112,,
70.855019000,0x012,,
71.058886600,0x112,,
71.060032500,0x012,,
71.263900000,0x112,,
71.265045900,0x012,,
71.468913500,0x108,,
71.470059400,0x008,,
71.493915100,0x112,,
71.495061000,0x012,,
71.678927200,0x112,,
71.680073200,0x012,,
71.883940700,0x112,,
71.885086600,0x012,,
72.088954200,0x112,,
72.090100100,0x012,,
72.293967600,0x112,,
72.295113500,0x012,,
72.498981100,0x130,,
72.500127000,0x030,,
72.523982700,0x112,,
72.525128600,0x012,,
72.708994900,0x112,,
72.710140800,0x012,,
72.914008300,0x112,,
72.915154200,0x012,,
73.119021800,0x112,,
73.120167700,0x012,,
73.324035200,0x112,,
73.325181100,0x012,,
73.529048700,0x112,,
73.530194600,0x012,,
73.734062100,0x112,,
73.735208000,0x012,,
73.939075600,0x112,,
73.940221500,0x012,,
74.044186700,0x108,,
74.045332600,0x008,,
74.149089400,0x112,,
74.150235300,0x012,,
74.354102800,0x112,,
74.355248700,0x012,,
74.559220500,0x112,,
74.560366400,0x012,,
74.764233900,0x112,,
74.765379800,0x012,,
74.969247400,0x112,,
74.970393300,0x012,,
75.074254300,0x130,,
75.075400200,0x030,,
75.179261200,0x112,,
75.180407100,0x012,,
75.384274600,0x112,,
75.385420500,0x012,,
75.589288100,0x112,,
75.590434000,0x012,,
75.794301500,0x112,,
75.795447400,0x012,,
75.999315000,0x112,,
76.000460900,0x012,,
76.204328400,0x112,,
76.205474400,0x012,,
76.409341900,0x112,,
76.410487800,0x012,,
76.614355400,0x108,,
76.615501300,0x008,,
76.639357000,0x112,,
76.640502900,0x012,,
76.824369100,0x112,,
76.825515100,0x012,,
77.029382600,0x112,,
77.030528500,0x012,,
77.234396100,0x112,,
77.235542000,0x012,,
77.439409500,0x112,,
77.440555400,0x012,,
77.644423000,0x130,,
77.645568900,0x030,,
77.669424600,0x112,,
77.670570500,0x012,,
77.854436800,0x112,,
77.855582700,0x012,,
77.959443700,0x112,,
77.960589600,0x012,,
78.164457100,0x112,,
78.165603000,0x012,,
78.369470600,0x112,,
78.370616500,0x012,,
78.574484000,0x112,,
78.575630000,0x012,,
78.779497500,0x112,,
78.780643400,0x012,,
78.984511000,0x112,,
78.985656900,0x012,,
79.189524400,0x108,,
79.190670300,0x008,,
79.214526100,0x112,,
79.215672000,0x012,,
79.399538200,0x112,,
79.400684100,0x012,,
79.604551700,0x112,,
79.605697600,0x012,,
79.809565100,0x112,,
79.810711000,0x012,,
80.014578600,0x112,,
80.015724500,0x012,,
80.219696200,0x130,,
80.220842100,0x030,,
80.244593700,0x112,,
80.245739600,0x012,,
80.429710000,0x112,,
80.430855900,0x012,,
80.634723500,0x112,,
80.635869400,0x012,,
80.839736900,0x112,,
80.840882900,0x012,,
81.044750400,0x112,,
81.045896300,0x012,,
81.249763900,0x112,,
81.250909800,0x012,,
81.454777300,0x112,,
81.455923200,0x012,,
81.659790800,0x112,,
81.660936700,0x012,,
81.764797700,0x108,,
81.765943600,0x008,,
81.869804600,0x112,,
81.870950500,0x012,,
82.074818100,0x112,,
82.075964000,0x012,,
82.279831500,0x112,,
82.280977400,0x012,,
82.484845000,0x112,,
82.485990900,0x012,,
82.689858500,0x112,,
82.691004400,0x012,,
82.794865300,0x130,,
82.796011300,0x030,,
82.899872200,0x112,,
82.901018200,0x012,,
83.104885700,0x112,,
83.106031600,0x012,,
83.309899200,0x112,,
83.311045100,0x012,,
83.514912600,0x112,,
83.516058600,0x012,,
83.719926100,0x112,,
83.721072000,0x012,,
83.924939600,0x112,,
83.926085500,0x012,,
84.129953000,0x112,,
84.131099000,0x012,,
84.334966500,0x108,,
84.336112400,0x008,,
84.359968200,0x112,,
84.361114100,0x012,,
84.544980300,0x112,,
84.546126200,0x012,,
84.749993800,0x112,,
84.751139700,0x012,,
84.955007200,0x112,,
84.956153100,0x012,,
85.160020700,0x112,,
85.161166600,0x012,,
85.365034200,0x130,,
85.366180100,0x030,,
85.390035800,0x112,,
85.391181700,0x012,,
85.575048000,0x112,,
85.576193900,0x012,,
85.780061400,0x112,,
85.781207400,0x012,,
85.985179100,0x112,,
85.986325000,0x012,,
86.190192600,0x112,,
86.191338500,0x012,,
86.395206000,0x112,,
86.396351900,0x012,,
86.600219500,0x112,,
86.601365400,0x012,,
86.805233000,0x112,,
86.806378900,0x012,,
86.910239900,0x108,,
86.911385800,0x008,,
87.015246800,0x112,,
87.016392700,0x012,,
87.220260200,0x112,,
87.221406100,0x012,,
87.425273700,0x112,,
87.426419600,0x012,,
87.630287200,0x112,,
87.631433100,0x012,,
87.835300600,0x112,,
87.836446600,0x012,,
87.940307500,0x130,,
87.941453500,0x030,,
88.045314400,0x112,,
88.046460400,0x012,,
88.250327900,0x112,,
88.251473800,0x012,,
88.455341400,0x112,,
88.456487300,0x012,,
88.660354900,0x112,,
88.661500800,0x012,,
88.865368300,0x112,,
88.866514200,0x012,,
89.070381800,0x112,,
89.071527700,0x012,,
89.275395300,0x112,,
89.276541200,0x012,,
89.480408800,0x108,,
89.481554700,0x008,,
89.505410400,0x112,,
89.506556300,0x012,,
89.690422600,0x112,,
89.691568500,0x012,,
89.895436000,0x112,,
89.896581900,0x012,,
90.100449500,0x112,,
90.101595400,0x012,,
90.305463000,0x112,,
90.306608900,0x012,,
90.510476400,0x130,,
90.511622400,0x030,,
90.535478100,0x112,,
90.536624000,0x012,,
90.720490300,0x112,,
90.721636200,0x012,,
90.925503700,0x112,,
90.926649600,0x012,,
91.130517200,0x112,,
91.131663100,0x012,,
91.335530700,0x112,,
91.336676600,0x012,,
91.540544100,0x112,,
91.541690100,0x012,,
91.745661800,0x112,,
91.746807700,0x012,,
91.950675300,0x112,,
91.951821200,0x012,,
92.055682200,0x108,,
92.056828100,0x008,,
92.160689100,0x112,,
92.161835000,0x012,,
92.365702600,0x112,,
92.366848500,0x012,,
92.570716000,0x112,,
92.571861900,0x012,,
92.775729500,0x112,,
92.776875400,0x012,,
92.980743000,0x112,,
92.981888900,0x012,,
93.085749900,0x130,,
93.086895800,0x030,,
93.190756800,0x112,,
93.191902700,0x012,,
93.395770300,0x112,,
93.396916200,0x012,,
93.600783700,0x112,,
93.601929600,0x012,,
93.805797200,0x112,,
93.806943100,0x012,,
94.010810700,0x112,,
94.011956600,0x012,,
94.215824200,0x112,,
94.216970100,0x012,,
94.420837600,0x112,,
94.421983600,0x012,,
94.625851100,0x108,,
94.626997000,0x008,,
94.650852800,0x112,,
94.651998700,0x012,,
94.835864900,0x112,,
94.837010800,0x012,,
95.040878400,0x112,,
95.042024300,0x012,,
95.245891900,0x112,,
95.247037800,0x012,,
95.450905400,0x112,,
95.452051300,0x012,,
95.655918800,0x130,,
95.657064700,0x030,,
95.680920500,0x112,,
95.682066400,0x012,,
95.865932600,0x112,,
95.867078600,0x012,,
96.070946100,0x112,,
96.072092000,0x012,,
96.275959600,0x112,,
96.277105500,0x012,,
96.480973100,0x112,,
96.482119000,0x012,,
96.685986600,0x112,,
96.687132500,0x012,,
96.891000000,0x112,,
96.892145900,0x012,,
97.096013500,0x112,,
97.097159400,0x012,,
97.201124600,0x108,,
97.202270500,0x008,,
97.306027300,0x112,,
97.307173200,0x012,,
97.511145000,0x112,,
97.512290900,0x012,,
97.716158400,0x112,,
97.717304400,0x012,,
97.921171900,0x112,,
97.922317800,0x012,,
98.126185400,0x112,,
98.127331300,0x012,,
98.231192300,0x130,,
98.232338200,0x030,,
98.336199200,0x112,,
98.337345100,0x012,,
98.541212700,0x112,,
98.542358600,0x012,,
98.746226200,0x112,,
98.747372100,0x012,,
98.951239700,0x112,,
98.952385600,0x012,,
99.156253100,0x112,,
99.157399000,0x012,,
99.361266600,0x112,,
99.362412500,0x012,,
99.566280100,0x112,,
99.567426000,0x012,,
99.771293600,0x108,,
99.772439500,0x008,,
99.796295200,0x112,,
99.797441100,0x012,,
99.981307400,0x112,,
99.982453300,0x012,,
